!Agilent Technologies,N5245A,MY51251303,A.09.42.12
!Agilent N5245A: A.09.42.12
!Date: Friday, March 09, 2012 11:25:14
!Correction: S11(Full 4 Port(1,2,3,4)) 
!S12(Full 4 Port(1,2,3,4)) 
!S13(Full 4 Port(1,2,3,4)) 
!S14(Full 4 Port(1,2,3,4)) 
!S21(Full 4 Port(1,2,3,4)) 
!S22(Full 4 Port(1,2,3,4)) 
!S23(Full 4 Port(1,2,3,4)) 
!S24(Full 4 Port(1,2,3,4)) 
!S31(Full 4 Port(1,2,3,4)) 
!S32(Full 4 Port(1,2,3,4)) 
!S33(Full 4 Port(1,2,3,4)) 
!S34(Full 4 Port(1,2,3,4)) 
!S41(Full 4 Port(1,2,3,4)) 
!S42(Full 4 Port(1,2,3,4)) 
!S43(Full 4 Port(1,2,3,4)) 
!S44(Full 4 Port(1,2,3,4)) 
!S4P File: Measurements: <S11,S12,S13,S14>,
!<S21,S22,S23,S24>,
!<S31,S32,S33,S34>,
!<S41,S42,S43,S44>:
# Hz S  dB   R 50
10000000 -19.118073 119.08652 -56.076359 97.504898 -59.847141 64.579803 -56.381554 -130.60506
-60.223248 21.918224 -18.075579 124.3585 -57.163071 -100.36951 -56.037827 95.048386
-58.124504 65.183456 -61.109505 40.626102 -19.124767 118.5868 -67.551544 179.64722
-59.034481 18.4515 -54.094273 78.28878 -69.077423 -133.08771 -17.749655 126.17215
20000000 -20.905651 133.36774 -75.545723 -99.713181 -49.265457 87.262177 -85.882561 6.9629831
-88.202271 -68.711945 -22.484562 124.2967 -71.712296 134.69264 -50.711113 86.478195
-51.009274 80.596741 -78.785095 -42.30872 -21.066135 131.76355 -67.164307 43.064274
-62.299824 16.142954 -48.915211 86.821121 -64.917328 150.99429 -22.276962 126.36708
30000000 -22.807301 132.67992 -79.355919 -13.573116 -46.892044 79.769073 -73.906586 156.75635
-73.869576 -60.576477 -24.211329 123.03275 -76.209557 -150.50237 -46.851292 80.364738
-46.581455 84.51577 -71.046234 -175.63052 -23.091341 130.78714 -76.634781 -101.76669
-76.519791 -87.265381 -47.542496 83.06955 -75.847008 -79.979279 -24.054941 126.4831
40000000 -23.80912 135.96083 -68.842957 -132.18462 -43.962002 84.346107 -69.760757 92.701523
-74.159081 -114.19743 -25.580114 125.48932 -73.708984 -148.63554 -44.458591 82.77494
-44.459782 81.035187 -68.232643 -46.281914 -24.080219 134.30692 -66.067299 38.700623
-76.729683 -139.82021 -45.547955 81.488831 -69.380959 127.65896 -25.321648 129.06013
50000000 -24.458464 134.80046 -76.029312 -128.83611 -42.503044 82.502693 -69.627235 -12.627794
-80.495804 50.313885 -26.558151 125.04187 -79.55365 -166.38229 -42.982132 83.154823
-42.35363 81.375114 -75.83033 -59.32402 -24.811588 133.40262 -79.788177 -69.9729
-80.422623 32.730175 -43.20245 80.400887 -78.758026 -30.478319 -26.274542 129.49852
60000000 -24.726742 134.72351 -71.357239 109.37183 -40.93055 80.537468 -67.302505 -145.86241
-75.715935 -94.188835 -27.101894 123.48139 -80.257851 -100.07855 -41.66209 81.108475
-40.880383 80.567833 -79.057327 149.60045 -25.042238 132.71553 -74.530121 89.938576
-74.572212 -51.288483 -41.364777 80.776649 -68.178177 -50.991379 -26.705564 129.13367
70000000 -25.172413 133.39824 -83.782555 -19.731138 -39.783478 80.69455 -79.666153 -18.726009
-94.815697 14.455226 -27.497393 122.93323 -75.705696 -99.187035 -40.294193 80.747391
-39.791225 81.146385 -83.470894 -18.024254 -25.488276 131.86415 -74.913612 165.83331
-78.782417 139.41742 -40.311916 78.823639 -74.371292 -153.50327 -27.094513 128.92192
80000000 -25.369062 131.08957 -74.047775 -161.09914 -38.582371 80.509003 -80.834045 26.346733
-75.186943 -144.2681 -27.819901 120.8344 -77.625153 -25.305319 -39.138393 79.244217
-38.686398 80.456253 -79.01149 -76.794495 -25.661764 130.04716 -68.712601 135.43289
-70.348236 68.659943 -39.416042 79.49736 -74.36808 -106.16071 -27.419439 126.83807
90000000 -25.629971 129.1387 -82.61731 -6.7051597 -37.567753 80.137383 -86.036804 -151.74512
-84.03846 101.04401 -28.322062 117.89108 -77.080406 -125.62738 -37.969219 78.576965
-37.543152 79.348099 -85.887589 86.534782 -25.989216 128.35739 -71.490555 -7.5686035
-87.885658 -116.20835 -38.102497 78.176277 -73.223572 -43.427181 -27.913889 125.49093
100000000 -25.742899 127.49126 -82.651093 -139.67204 -36.727638 79.96904 -79.47821 15.955821
-79.328194 92.239647 -28.552937 116.158 -77.907974 94.533516 -37.264832 77.445328
-36.751816 80.022438 -78.4739 -19.044031 -26.041832 126.77899 -82.409584 -31.774437
-76.448395 179.63014 -37.218292 77.958023 -79.790482 -88.794144 -28.130039 124.10497
110000000 -25.83831 124.72393 -74.259499 -69.342804 -35.964188 79.058525 -80.38533 -138.87633
-76.440849 112.59003 -28.875719 113.93142 -82.541595 -136.27876 -36.514423 76.85569
-35.855133 79.320076 -76.029854 148.41228 -26.168236 124.21877 -85.346085 -27.626219
-71.230202 107.37587 -36.449787 76.865738 -74.130783 81.714905 -28.444805 123.09079
120000000 -25.973085 122.93677 -74.706223 28.514292 -35.155102 79.247551 -76.572655 79.631622
-85.153564 -145.16216 -29.006721 111.48117 -84.255714 -105.54127 -35.781635 75.94149
-35.188305 79.297295 -90.353439 -54.707561 -26.26582 122.45945 -82.73967 -67.061714
-74.454231 0.34732163 -35.662922 76.711739 -72.154472 -148.93221 -28.535566 120.87304
130000000 -26.022045 120.07636 -74.218124 -29.34041 -34.487995 78.654945 -77.274216 -148.92061
-80.504204 -155.49413 -29.20891 108.3613 -75.043449 123.98304 -35.093498 75.844193
-34.488605 78.309708 -83.157227 141.65309 -26.362108 119.81421 -78.010124 -56.738266
-77.230087 110.31397 -35.020813 75.876343 -77.438988 71.059708 -28.819536 119.01252
140000000 -26.16473 117.83627 -89.115273 -169.96519 -33.860622 78.13073 -86.179924 8.7569389
-80.888329 -125.66857 -29.346344 106.58342 -91.148804 -147.8535 -34.441128 74.756805
-33.918957 78.213089 -81.276283 -68.161362 -26.469143 117.68576 -77.692474 -118.90266
-75.281502 -140.80455 -34.441982 74.703049 -78.853905 93.404976 -28.851646 117.14205
150000000 -26.225681 115.37773 -81.450089 177.00928 -33.304588 77.532753 -77.205383 154.48907
-76.714333 -113.81561 -29.454206 103.19276 -78.25827 10.513277 -33.863987 74.433762
-33.30563 77.428276 -83.484825 -126.15093 -26.523273 115.29308 -77.611244 151.72679
-76.451324 1.0908315 -33.911377 74.170357 -77.747772 154.02303 -28.959972 115.28333
160000000 -26.229542 112.82626 -81.038216 64.632927 -32.755676 77.002403 -81.147362 -31.74021
-89.340446 -178.103 -29.573641 101.71846 -76.892204 2.1521003 -33.430672 73.822105
-32.728691 77.195557 -79.470398 -65.468353 -26.554371 113.12933 -79.288521 -76.072838
-73.842705 -117.99335 -33.358295 73.720337 -102.14212 52.507076 -29.036943 114.33598
170000000 -26.272409 110.20712 -74.686409 -84.337418 -32.2444 76.7911 -72.717567 -16.209269
-77.237999 145.26657 -29.737677 98.769905 -77.607399 -144.78264 -32.913067 72.645103
-32.17749 77.145645 -81.947716 -126.18237 -26.542391 110.47062 -74.382538 -116.7334
-73.021866 6.271955 -32.882072 72.393387 -83.720749 -50.299637 -29.133688 112.19303
180000000 -26.339144 107.56151 -76.803871 -72.819733 -31.773233 75.73877 -81.642532 -39.293159
-79.838371 152.7674 -29.957537 95.904945 -80.265198 -64.549591 -32.471748 71.968994
-31.73184 76.126068 -82.814095 -113.82834 -26.580902 108.19142 -82.799644 -133.20343
-82.934776 -125.84561 -32.402206 71.644157 -89.086655 -101.48785 -29.276955 110.7719
190000000 -26.444721 105.00703 -91.780785 -126.1672 -31.349037 75.451996 -82.702759 132.78755
-84.520874 -90.3974 -30.048695 93.568214 -77.635422 65.747696 -32.00808 71.235123
-31.324669 75.569221 -78.554276 -26.589869 -26.65089 105.48527 -76.202576 -173.99599
-77.369125 -134.78822 -32.002106 70.953178 -72.985085 -143.29567 -29.300001 109.45158
200000000 -26.478188 101.99289 -77.820816 -137.42638 -30.903362 75.254967 -92.090736 175.73108
-81.859703 108.93907 -30.229309 91.222328 -82.169228 -160.1886 -31.580265 70.407455
-30.888159 74.921524 -83.579636 39.688126 -26.630877 102.93718 -80.684227 158.00157
-85.557968 147.98665 -31.535727 70.100876 -74.134911 -123.68109 -29.385494 107.61553
210000000 -26.493196 99.401497 -82.11808 33.518169 -30.512358 74.161598 -83.005882 -154.77402
-82.225502 -132.16727 -30.267557 88.275955 -81.454681 -144.01939 -31.23494 69.294777
-30.457144 74.056839 -91.270424 -76.904289 -26.611004 100.88837 -78.096481 0.41848528
-75.970665 11.12974 -31.204645 69.999191 -71.203468 -146.70442 -29.348574 106.24545
220000000 -26.516424 96.316902 -91.382164 146.76231 -30.117735 73.243187 -77.262726 -4.3749003
-77.767693 -85.855713 -30.410595 85.553474 -75.226204 26.463423 -30.826622 68.775703
-30.089849 73.733849 -82.090401 -131.75494 -26.635981 98.033318 -82.118713 -156.75731
-76.149246 -54.121746 -30.890995 69.295471 -78.455482 172.56068 -29.392933 104.54089
230000000 -26.601423 93.511826 -92.447136 -6.5980921 -29.748976 73.1903 -75.623199 29.909378
-74.459061 6.5914359 -30.613867 82.638771 -80.726357 -98.290871 -30.483807 67.879639
-29.730154 72.966187 -79.442772 -147.35045 -26.606203 95.636757 -83.440552 106.14543
-83.367607 128.35464 -30.506119 68.127533 -76.208496 177.7545 -29.525799 102.84657
240000000 -26.586689 90.920685 -78.754829 -90.570839 -29.410143 72.715187 -72.466118 -62.149376
-81.80526 65.960258 -30.796314 79.7173 -80.201469 -7.905057 -30.17029 67.355331
-29.383322 72.53083 -86.048302 88.0578 -26.60466 93.118767 -80.747108 144.55803
-73.222679 -14.263028 -30.151184 67.094658 -81.164177 89.526947 -29.587313 101.61153
250000000 -26.625645 88.137543 -76.544319 -104.63145 -29.083363 71.83963 -75.279259 40.938274
-79.647911 -133.48303 -30.863993 76.552391 -94.952065 107.93797 -29.833151 66.383842
-29.101381 71.770248 -87.507835 119.88539 -26.599417 91.125175 -83.99353 170.01039
-95.972733 127.2673 -29.825039 66.565376 -83.389053 148.54507 -29.601688 99.700615
260000000 -26.571827 85.052818 -71.338348 -169.61073 -28.765562 71.510757 -74.148582 88.731575
-83.540565 -116.49245 -31.076147 74.464592 -85.298721 60.482342 -29.540743 65.72644
-28.6674 71.189964 -79.660233 124.54858 -26.538643 87.860046 -77.340431 -61.089581
-75.646561 -166.02629 -29.520489 65.736198 -80.588768 77.592873 -29.683867 98.607765
270000000 -26.576429 82.034859 -81.334976 -118.93454 -28.440872 70.530083 -82.947906 177.58015
-75.522141 -29.383881 -31.200457 71.509102 -97.959061 131.69843 -29.278469 64.856552
-28.40572 70.279167 -76.834778 126.26067 -26.57181 85.69696 -90.251488 138.1418
-82.46505 69.863937 -29.235939 64.985916 -85.885239 27.069487 -29.67067 96.75164
280000000 -26.537136 79.750786 -85.116035 91.577171 -28.192947 70.295403 -76.496025 148.75362
-77.64257 -76.74131 -31.337866 68.746765 -76.648178 -175.25362 -28.993513 64.333221
-28.13607 70.219856 -81.489624 -170.60875 -26.482664 83.732582 -79.366486 177.47705
-84.660912 -5.2760949 -28.937088 63.878353 -69.821457 -155.26047 -29.780569 95.444672
290000000 -26.627062 76.383774 -78.263741 -169.22752 -27.880583 69.396576 -78.295242 119.8204
-93.438499 165.34126 -31.497036 65.297966 -90.696861 111.36005 -28.681856 63.158924
-27.821497 69.410042 -80.893555 159.16505 -26.591185 80.807259 -87.366631 -126.20731
-84.016411 -30.15963 -28.693686 63.357708 -76.65271 -47.87175 -29.898617 93.285889
300000000 -26.60076 73.966568 -78.419235 80.342941 -27.581934 68.874222 -83.606911 66.6007
-77.637695 171.61009 -31.675562 62.177658 -80.670647 -53.142673 -28.479652 62.211002
-27.557098 68.760773 -85.606949 106.34686 -26.5109 78.403458 -92.493492 -38.645599
-93.690086 87.242447 -28.502352 62.51001 -79.953522 140.30327 -29.913763 91.693375
310000000 -26.562042 71.268814 -80.192383 -110.62077 -27.314253 68.39595 -82.361412 -159.09419
-92.266876 75.306007 -31.812811 59.449955 -82.066841 -9.3139925 -28.239544 61.642944
-27.305107 68.28054 -80.577957 172.42383 -26.452024 76.133438 -72.950607 -82.779518
-80.345512 -163.83847 -28.216537 61.692207 -76.755722 -146.61308 -29.990561 90.513199
320000000 -26.524033 68.428665 -84.455704 -62.063629 -27.068949 67.599396 -75.071007 163.23813
-77.209694 -111.37217 -31.994444 56.023876 -87.002998 -55.651978 -27.964621 61.120934
-27.077757 67.47876 -81.2117 155.00523 -26.414152 73.609406 -78.189507 -85.585075
-75.602669 -28.312969 -27.930843 61.002647 -85.645927 109.64467 -30.061228 88.341843
330000000 -26.511261 65.681633 -85.867882 -110.78001 -26.82604 67.120758 -76.74012 -120.84491
-81.162819 178.00427 -32.158623 54.154209 -79.975121 110.09377 -27.776632 60.302048
-26.822924 67.05072 -82.346901 -3.0340929 -26.39806 71.508446 -78.694794 -130.02188
-80.678833 -163.75635 -27.778831 60.240864 -83.523216 -78.223274 -30.106668 87.075401
340000000 -26.522287 63.178192 -81.494049 86.903488 -26.582472 66.530418 -84.417976 -97.208534
-80.272102 -79.699532 -32.528004 51.031219 -80.630653 -65.573692 -27.564068 59.594891
-26.55784 66.292892 -77.964241 -21.467339 -26.406599 69.062813 -95.780792 -125.37286
-77.66684 -14.3353 -27.566198 59.463619 -85.119316 112.23491 -30.196907 85.767021
350000000 -26.448664 60.211376 -77.076439 129.36452 -26.379198 65.860558 -77.360992 109.2067
-76.745834 82.304665 -32.726204 48.368591 -85.773193 -109.22729 -27.370491 58.776772
-26.33411 65.680206 -77.445274 -91.594727 -26.354757 66.805374 -88.528481 129.12157
-79.098335 16.248751 -27.370298 58.821243 -75.158791 -133.43584 -30.229895 84.412018
360000000 -26.409298 57.894138 -83.091064 -108.63118 -26.164972 65.216331 -79.622368 0.066989243
-97.298859 -121.9933 -32.862755 44.996796 -78.138603 -121.58646 -27.14846 58.007671
-26.132214 65.070946 -82.560349 -11.672074 -26.335127 64.66243 -79.336235 56.40604
-87.047363 -155.36325 -27.150011 58.0061 -85.364616 -37.958252 -30.218525 82.399254
370000000 -25.776056 53.931717 -77.479469 -128.91364 -25.932173 64.281425 -87.713005 -20.517473
-86.833397 97.465492 -32.878323 33.355457 -78.281456 124.22341 -26.958805 57.53302
-25.937485 64.213814 -83.113457 75.860619 -25.736286 60.647633 -74.209419 -71.869934
-78.428215 -56.805771 -26.966179 57.469692 -80.004936 -134.34172 -30.867929 75.139626
380000000 -25.733046 52.012886 -73.78141 138.2359 -25.749962 63.667931 -79.15078 -91.265511
-93.438133 -43.04808 -33.081886 30.67872 -77.354637 -171.43465 -26.772057 56.887653
-25.730804 63.526714 -81.523018 85.460838 -25.672464 58.658493 -73.922737 -152.92821
-77.305481 164.13496 -26.767361 56.802105 -84.313637 -161.59477 -30.840363 74.358536
390000000 -25.767464 49.623608 -81.075775 -57.162201 -25.525581 63.194489 -74.869774 -77.837257
-86.229103 -72.261696 -33.124084 26.703262 -94.644737 -131.74593 -26.605892 56.138874
-25.498365 63.068882 -86.289963 -65.611954 -25.692308 56.498547 -78.768219 -174.70602
-83.727264 -101.20016 -26.563938 56.081268 -80.264313 -139.32208 -30.798143 72.391632
400000000 -25.656258 46.856613 -73.623383 -128.22548 -25.303617 62.577477 -76.167725 -59.620716
-81.434639 170.56956 -33.22477 22.851398 -76.897293 156.94022 -26.454765 55.47768
-25.320345 62.336807 -85.365334 -64.049248 -25.650295 54.550262 -76.658028 -134.481
-91.662811 60.444633 -26.470486 55.317234 -79.220558 -143.85982 -30.797922 70.52446
410000000 -25.662516 44.613182 -83.144493 -88.937363 -25.128101 61.924381 -76.054207 165.15312
-87.503754 129.13947 -33.425453 19.703609 -79.499542 -65.893173 -26.271511 54.749901
-25.159735 61.845287 -87.347931 -85.977554 -25.597223 52.229916 -87.496376 -11.41268
-84.077011 -103.84385 -26.274364 54.858234 -92.976852 -56.102722 -30.853226 69.377098
420000000 -25.582542 42.474773 -71.521492 -94.889229 -24.980223 61.518913 -78.090378 -86.235596
-77.465942 -44.638592 -33.507305 16.299706 -88.562492 15.385042 -26.132614 54.153717
-24.910172 61.280159 -76.026077 16.520866 -25.506245 50.339397 -76.975159 -141.51698
-81.295914 144.94193 -26.110064 53.983829 -78.693375 176.66647 -30.850796 67.422264
430000000 -25.599222 40.230633 -81.532173 -48.011787 -24.809988 60.727829 -83.153397 174.60616
-88.919624 -85.613121 -33.61652 12.244205 -72.500565 -96.923767 -25.995577 53.326859
-24.772215 60.758877 -82.766281 0.73448026 -25.534815 48.373505 -82.881905 35.986404
-75.276276 85.05793 -25.965139 53.449718 -81.863106 -155.85797 -30.929749 65.522133
440000000 -25.520426 37.857452 -78.306137 -88.759224 -24.626305 60.100979 -81.037552 167.54335
-81.678459 -58.155045 -33.76199 9.4451017 -77.548904 -111.72092 -25.847166 52.794521
-24.608385 60.114956 -75.100212 -108.604 -25.489771 46.47979 -89.309189 157.17278
-95.874619 17.353548 -25.8265 52.71653 -73.840668 -111.14701 -30.881857 64.422043
450000000 -25.563158 35.892597 -81.839661 -122.72807 -24.422642 59.504063 -83.724327 -55.307411
-81.527222 151.89439 -33.878754 7.0037937 -87.716385 -87.274597 -25.699783 51.885403
-24.449205 59.662064 -77.300964 -135.4921 -25.49548 44.529697 -80.507217 -144.18933
-84.934166 -7.0566797 -25.688082 52.054314 -78.742813 -100.50768 -30.822878 62.476063
460000000 -25.547913 34.081379 -79.788635 -27.360884 -24.282305 58.706085 -80.951134 0.13617057
-74.690262 -139.84679 -33.950943 2.694236 -85.481544 -132.76549 -25.549139 51.353333
-24.298689 58.804604 -83.080032 56.392513 -25.444082 42.758274 -75.006004 -123.34612
-87.420082 -33.689922 -25.553591 51.408295 -91.385681 -6.3368773 -30.862906 60.937992
470000000 -25.539787 32.069733 -77.630157 -115.14347 -24.127626 58.332069 -85.155617 -35.011433
-74.404419 -135.55992 -34.165249 -0.55671138 -75.489876 117.15183 -25.426928 50.780361
-24.123203 58.255066 -79.605568 14.591623 -25.457645 40.859936 -79.298401 -85.669456
-80.112892 -157.43684 -25.438007 50.802471 -83.724617 -85.054626 -30.874252 59.292824
480000000 -25.533667 29.852623 -79.377129 -156.38548 -23.970337 57.7202 -78.798141 12.506243
-79.692894 -85.806099 -34.204124 -4.3064609 -75.054138 53.448364 -25.291029 50.167446
-23.96999 57.752617 -75.294807 158.06242 -25.466555 39.021236 -97.96106 70.719887
-86.576553 140.75436 -25.306133 50.111389 -93.60746 -173.28706 -30.819231 57.529285
490000000 -25.540565 28.03187 -85.905914 -120.98112 -23.826916 57.089939 -79.532547 69.529594
-75.496246 3.0095437 -34.489563 -7.6618056 -89.249031 -114.5086 -25.170073 49.397194
-23.833109 57.061111 -79.322739 -175.04008 -25.477699 37.408569 -74.946381 172.45776
-79.236786 -133.16602 -25.157946 49.379143 -81.81665 -127.18777 -30.944273 56.23703
500000000 -25.502993 26.020447 -81.0383 -76.243568 -23.676607 56.332134 -78.423851 -131.48758
-90.764938 -163.62494 -34.62521 -9.2494278 -100.67304 -166.54221 -25.04178 48.847153
-23.685865 56.489738 -75.354668 -159.99849 -25.435867 35.550591 -92.423714 -161.10948
-86.949501 168.47493 -25.076357 48.721352 -91.065598 -151.29556 -30.748835 54.94585
510000000 -25.576542 24.210266 -81.725204 -139.90555 -23.536692 55.872787 -81.401375 68.138031
-78.629128 -159.0573 -34.818863 -13.152956 -80.267746 -26.672459 -24.967997 48.207275
-23.535255 55.909004 -80.157631 157.00742 -25.505995 34.132027 -92.127586 -35.155659
-78.280945 15.426242 -24.91749 47.896305 -76.812225 -45.102367 -30.787823 52.836731
520000000 -25.638809 22.011003 -82.647896 146.72412 -23.411184 55.131882 -88.076538 155.15576
-83.109322 60.508106 -34.975883 -16.885843 -76.389687 -17.98443 -24.838247 47.553654
-23.397434 55.355236 -80.590836 -176.67159 -25.518368 32.115955 -85.273766 153.0407
-84.885422 102.03477 -24.803463 47.27462 -80.216431 -95.66835 -30.750555 52.282421
530000000 -25.640938 20.08436 -81.540154 -89.463058 -23.249763 54.624142 -77.260963 -138.55824
-85.471107 75.974518 -35.248787 -19.676441 -78.373276 112.67841 -24.733763 46.948284
-23.276869 54.748291 -82.741043 123.31352 -25.53241 30.639624 -82.686646 -6.42067
-80.431007 -130.95557 -24.70273 46.873158 -73.647606 -105.73976 -30.77248 50.338623
540000000 -25.627415 17.807285 -77.336319 134.08502 -23.13954 54.018791 -83.952011 157.58571
-83.713432 91.687714 -35.390278 -24.480347 -102.96567 64.298538 -24.6287 46.337418
-23.16399 54.191875 -82.668884 -166.58406 -25.523167 28.432859 -79.792107 -54.763958
-82.67009 27.535738 -24.61142 46.208569 -84.710121 -30.448471 -30.854219 48.631996
550000000 -25.710388 15.925664 -82.559753 -38.947586 -23.004301 53.411789 -79.075783 169.97415
-90.200165 24.150295 -35.798225 -27.583294 -83.615326 61.857315 -24.5278 45.736065
-23.024477 53.580616 -81.96402 -116.9359 -25.556133 26.742826 -74.910942 161.69247
-77.829811 -177.30643 -24.48807 45.59383 -76.564957 158.03773 -30.784765 48.174381
560000000 -25.722267 13.966488 -94.817764 178.41412 -22.893185 52.792099 -79.168083 -171.82982
-79.701645 -68.464333 -36.059917 -30.306198 -76.135468 -45.340977 -24.432827 45.160648
